T67E0 2521:478.020   SEGGER J-Link V7.88c Log File
T67E0 2521:478.076   DLL Compiled: May 16 2023 15:38:29
T67E0 2521:478.085   Logging started @ 2023-10-12 03:35
T67E0 2521:478.091 - 11229.865ms
T67E0 2521:478.104 JLINK_SetWarnOutHandler(...)
T67E0 2521:478.110 - 0.010ms
T67E0 2521:478.119 JLINK_OpenEx(...)
T67E0 2521:479.700   Firmware: J-Link Lite-XMC4200 Rev.1 compiled Mar  1 2019 11:28:26
T67E0 2521:480.034   Firmware: J-Link Lite-XMC4200 Rev.1 compiled Mar  1 2019 11:28:26
T67E0 2521:499.624   Hardware: V1.00
T67E0 2521:499.643   S/N: 591111241
T67E0 2521:499.652   OEM: SEGGER
T67E0 2521:499.660   Feature(s): None
T67E0 2521:500.872   TELNET listener socket opened on port 19021
T67E0 2521:505.848   Device "CORTEX-M0" selected.
T67E0 2521:506.578   WEBSRV WEBSRV_Init(): Starting webserver thread(s)
T67E0 2521:506.803   WEBSRV Webserver running on local port 19080
T67E0 2521:655.027 - 176.930ms returns "O.K."
T67E0 2521:655.447 JLINK_GetEmuCaps()
T67E0 2521:655.466 - 0.023ms returns 0xB8EA5A33
T67E0 2521:655.481 JLINK_TIF_GetAvailable(...)
T67E0 2521:655.695 - 0.217ms
T67E0 2521:655.706 JLINK_SetErrorOutHandler(...)
T67E0 2521:655.713 - 0.010ms
T67E0 2521:655.728 JLINK_ExecCommand("ProjectFile = "C:\BitbucketRepository\ABS_Bootloader\JLinkSettings.ini"", ...). 
T67E0 2521:656.757   Device "CORTEX-M0" selected.
T67E0 2521:657.085 - 1.361ms returns 0x00
T67E0 2521:657.111 JLINK_ExecCommand("Device = CMS32M5536", ...). 
T67E0 2521:657.324   Device "CORTEX-M0" selected.
T67E0 2521:657.599 - 0.482ms returns 0x00
T67E0 2521:657.611 JLINK_ExecCommand("DisableConnectionTimeout", ...). 
T67E0 2521:657.622 - 0.005ms returns 0x01
T67E0 2521:657.633 JLINK_GetHardwareVersion()
T67E0 2521:657.640 - 0.010ms returns 10000
T67E0 2521:657.650 JLINK_GetDLLVersion()
T67E0 2521:657.657 - 0.010ms returns 78803
T67E0 2521:657.666 JLINK_GetOEMString(...)
T67E0 2521:657.675 JLINK_GetFirmwareString(...)
T67E0 2521:657.681 - 0.010ms
T67E0 2521:657.706 JLINK_GetDLLVersion()
T67E0 2521:657.713 - 0.010ms returns 78803
T67E0 2521:657.722 JLINK_GetCompileDateTime()
T67E0 2521:657.729 - 0.009ms
T67E0 2521:657.742 JLINK_GetFirmwareString(...)
T67E0 2521:657.748 - 0.009ms
T67E0 2521:657.761 JLINK_GetHardwareVersion()
T67E0 2521:657.768 - 0.009ms returns 10000
T67E0 2521:657.781 JLINK_GetSN()
T67E0 2521:657.787 - 0.010ms returns 591111241
T67E0 2521:657.800 JLINK_GetOEMString(...)
T67E0 2521:657.814 JLINK_TIF_Select(JLINKARM_TIF_SWD)
T67E0 2521:658.438 - 0.628ms returns 0x00
T67E0 2521:658.450 JLINK_HasError()
T67E0 2521:658.462 JLINK_SetSpeed(5000)
T67E0 2521:658.566 - 0.108ms
T67E0 2521:658.577 JLINK_GetId()
T67E0 2521:659.255   Found SW-DP with ID 0x0BB11477
T67E0 2521:661.496   Old FW that does not support reading DPIDR via DAP jobs
T67E0 2521:662.397   DPv0 detected
T67E0 2521:662.426   CoreSight SoC-400 or earlier
T67E0 2521:662.441   Scanning AP map to find all available APs
T67E0 2521:663.038   AP[1]: Stopped AP scan as end of AP map has been reached
T67E0 2521:663.055   AP[0]: AHB-AP (IDR: 0x04770021)
T67E0 2521:663.069   Iterating through AP map to find AHB-AP to use
T67E0 2521:663.940   AP[0]: Core found
T67E0 2521:663.960   AP[0]: AHB-AP ROM base: 0xE00FF000
T67E0 2521:664.500   CPUID register: 0x410CC200. Implementer code: 0x41 (ARM)
T67E0 2521:664.517   Found Cortex-M0 r0p0, Little endian.
T67E0 2521:664.941   -- Max. mem block: 0x00003D58
T67E0 2521:665.464   CPU_ReadMem(4 bytes @ 0xE000EDF0)
T67E0 2521:669.903   CPU_WriteMem(4 bytes @ 0xE000EDF0)
T67E0 2521:670.245   CPU_ReadMem(4 bytes @ 0xE0002000)
T67E0 2521:670.618   FPUnit: 4 code (BP) slots and 0 literal slots
T67E0 2521:670.628   CPU_ReadMem(4 bytes @ 0xE000EDFC)
T67E0 2521:670.967   CPU_WriteMem(4 bytes @ 0xE000EDFC)
T67E0 2521:671.348   CPU_ReadMem(4 bytes @ 0xE0001000)
T67E0 2521:671.702   CPU_WriteMem(4 bytes @ 0xE0001000)
T67E0 2521:672.075   CoreSight components:
T67E0 2521:672.088   ROMTbl[0] @ E00FF000
T67E0 2521:672.098   CPU_ReadMem(64 bytes @ 0xE00FF000)
T67E0 2521:673.350   CPU_ReadMem(32 bytes @ 0xE000EFE0)
T67E0 2521:674.156   [0][0]: E000E000 CID B105E00D PID 000BB008 SCS
T67E0 2521:674.168   CPU_ReadMem(32 bytes @ 0xE0001FE0)
T67E0 2521:674.945   [0][1]: E0001000 CID B105E00D PID 000BB00A DWT
T67E0 2521:674.964   CPU_ReadMem(32 bytes @ 0xE0002FE0)
T67E0 2521:675.804   [0][2]: E0002000 CID B105E00D PID 000BB00B FPB
T67E0 2521:676.048 - 17.476ms returns 0x0BB11477
T67E0 2521:676.063 JLINK_GetDLLVersion()
T67E0 2521:676.071 - 0.011ms returns 78803
T67E0 2521:676.084 JLINK_CORE_GetFound()
T67E0 2521:676.091 - 0.009ms returns 0x60000FF
T67E0 2521:676.101 JLINK_GetDebugInfo(0x100 = JLINKARM_ROM_TABLE_ADDR_INDEX)
T67E0 2521:676.108   Value=0xE00FF000
T67E0 2521:676.117 - 0.019ms returns 0
T67E0 2521:676.132 JLINK_GetDebugInfo(0x100 = JLINKARM_ROM_TABLE_ADDR_INDEX)
T67E0 2521:676.139   Value=0xE00FF000
T67E0 2521:676.148 - 0.019ms returns 0
T67E0 2521:676.157 JLINK_GetDebugInfo(0x101 = JLINKARM_DEBUG_INFO_ETM_ADDR_INDEX)
T67E0 2521:676.163   Value=0x00000000
T67E0 2521:676.173 - 0.019ms returns 0
T67E0 2521:676.182 JLINK_ReadMemEx(0xE0041FF0, 0x10 Bytes, Flags = 0x02000004)
T67E0 2521:676.194   CPU_ReadMem(16 bytes @ 0xE0041FF0)
T67E0 2521:676.680   Data:  00 00 00 00 00 00 00 00 00 00 00 00 00 00 00 00
T67E0 2521:676.690 - 0.511ms returns 16 (0x10)
T67E0 2521:676.700 JLINK_GetDebugInfo(0x102 = JLINKARM_DEBUG_INFO_MTB_ADDR_INDEX)
T67E0 2521:676.706   Value=0x00000000
T67E0 2521:676.715 - 0.018ms returns 0
T67E0 2521:676.724 JLINK_GetDebugInfo(0x103 = JLINKARM_DEBUG_INFO_TPIU_ADDR_INDEX)
T67E0 2521:676.730   Value=0x00000000
T67E0 2521:676.740 - 0.018ms returns 0
T67E0 2521:676.748 JLINK_ReadMemEx(0xE0040FF0, 0x10 Bytes, Flags = 0x02000004)
T67E0 2521:676.756   CPU_ReadMem(16 bytes @ 0xE0040FF0)
T67E0 2521:681.677   Data:  00 00 00 00 00 00 00 00 00 00 00 00 00 00 00 00
T67E0 2521:681.698 - 4.953ms returns 16 (0x10)
T67E0 2521:681.712 JLINK_GetDebugInfo(0x104 = JLINKARM_DEBUG_INFO_ITM_ADDR_INDEX)
T67E0 2521:681.719   Value=0xE0000000
T67E0 2521:681.728 - 0.019ms returns 0
T67E0 2521:681.738 JLINK_GetDebugInfo(0x105 = JLINKARM_DEBUG_INFO_DWT_ADDR_INDEX)
T67E0 2521:681.744   Value=0xE0001000
T67E0 2521:681.753 - 0.017ms returns 0
T67E0 2521:681.762 JLINK_GetDebugInfo(0x106 = JLINKARM_DEBUG_INFO_FPB_ADDR_INDEX)
T67E0 2521:681.769   Value=0xE0002000
T67E0 2521:681.777 - 0.017ms returns 0
T67E0 2521:681.787 JLINK_GetDebugInfo(0x107 = JLINKARM_DEBUG_INFO_NVIC_ADDR_INDEX)
T67E0 2521:681.793   Value=0xE000E000
T67E0 2521:681.801 - 0.017ms returns 0
T67E0 2521:681.811 JLINK_GetDebugInfo(0x10C = JLINKARM_DEBUG_INFO_DBG_ADDR_INDEX)
T67E0 2521:681.817   Value=0xE000EDF0
T67E0 2521:681.826 - 0.018ms returns 0
T67E0 2521:681.835 JLINK_GetDebugInfo(0x01 = Unknown)
T67E0 2521:681.842   Value=0x00000000
T67E0 2521:681.851 - 0.018ms returns 0
T67E0 2521:681.916 JLINK_ReadMemU32(0xE000ED00, 0x1 Items)
T67E0 2521:681.929   CPU_ReadMem(4 bytes @ 0xE000ED00)
T67E0 2521:682.380   Data:  00 C2 0C 41
T67E0 2521:682.393   Debug reg: CPUID
T67E0 2521:682.402 - 0.488ms returns 1 (0x1)
T67E0 2521:682.412 JLINK_GetDebugInfo(0x10F = JLINKARM_DEBUG_INFO_HAS_CORTEX_M_SECURITY_EXT_INDEX)
T67E0 2521:682.419   Value=0x00000000
T67E0 2521:682.428 - 0.018ms returns 0
T67E0 2521:682.436 JLINK_HasError()
T67E0 2521:682.447 JLINK_SetResetType(JLINKARM_CM3_RESET_TYPE_CONNECT_UNDER_RESET)
T67E0 2521:682.453 - 0.009ms returns JLINKARM_CM3_RESET_TYPE_NORMAL
T67E0 2521:682.462 JLINK_Reset()
T67E0 2521:682.471   CPU is running
T67E0 2521:682.481   CPU_WriteMem(4 bytes @ 0xE000EDF0)
T67E0 2521:682.879   CPU is running
T67E0 2521:682.889   CPU_WriteMem(4 bytes @ 0xE000EDFC)
T67E0 2521:683.254   Reset: Halt core after reset via DEMCR.VC_CORERESET.
T67E0 2521:683.638   Reset: Reset device via AIRCR.SYSRESETREQ.
T67E0 2521:683.648   CPU is running
T67E0 2521:683.657   CPU_WriteMem(4 bytes @ 0xE000ED0C)
T67E0 2521:736.695   CPU_ReadMem(4 bytes @ 0xE000EDF0)
T67E0 2521:737.099   CPU_ReadMem(4 bytes @ 0xE000EDF0)
T67E0 2521:740.636   CPU_WriteMem(4 bytes @ 0xE000EDFC)
T67E0 2521:746.676   CPU_ReadMem(4 bytes @ 0xE000EDF0)
T67E0 2521:750.105   CPU_WriteMem(4 bytes @ 0xE0002000)
T67E0 2521:750.484   CPU_ReadMem(4 bytes @ 0xE000EDFC)
T67E0 2521:750.860   CPU_ReadMem(4 bytes @ 0xE0001000)
T67E0 2521:751.186   CPU_WriteMem(4 bytes @ 0xE0001000)
T67E0 2521:751.635 - 69.181ms
T67E0 2521:751.729 JLINK_HasError()
T67E0 2521:751.751 JLINK_ReadReg(R15 (PC))
T67E0 2521:751.762 - 0.013ms returns 0x00000148
T67E0 2521:751.771 JLINK_ReadReg(XPSR)
T67E0 2521:751.777 - 0.009ms returns 0xC1000000
T67E0 2521:751.787 JLINK_Halt()
T67E0 2521:751.794 - 0.009ms returns 0x00
T67E0 2521:751.802 JLINK_ReadMemU32(0xE000EDF0, 0x1 Items)
T67E0 2521:751.813   CPU_ReadMem(4 bytes @ 0xE000EDF0)
T67E0 2521:752.158   Data:  03 00 03 00
T67E0 2521:752.172   Debug reg: DHCSR
T67E0 2521:752.182 - 0.383ms returns 1 (0x1)
T67E0 2521:752.197 JLINK_WriteU32_64(0xE000EDF0, 0xA05F0003)
T67E0 2521:752.205   Debug reg: DHCSR
T67E0 2521:752.395   CPU_WriteMem(4 bytes @ 0xE000EDF0)
T67E0 2521:752.752 - 0.564ms returns 0 (0x00000000)
T67E0 2521:752.772 JLINK_WriteU32_64(0xE000EDFC, 0x01000000)
T67E0 2521:752.783   Debug reg: DEMCR
T67E0 2521:752.800   CPU_WriteMem(4 bytes @ 0xE000EDFC)
T67E0 2521:753.192 - 0.428ms returns 0 (0x00000000)
T67E0 2521:753.260 JLINK_GetHWStatus(...)
T67E0 2521:753.463 - 0.219ms returns 0
T67E0 2521:753.528 JLINK_GetNumBPUnits(Type = 0xFFFFFF00)
T67E0 2521:753.544 - 0.021ms returns 0x04
T67E0 2521:753.560 JLINK_GetNumBPUnits(Type = 0xF0)
T67E0 2521:753.572 - 0.019ms returns 0x2000
T67E0 2521:753.590 JLINK_GetNumWPUnits()
T67E0 2521:753.602 - 0.018ms returns 2
T67E0 2521:753.660 JLINK_GetSpeed()
T67E0 2521:753.674 - 0.017ms returns 3000
T67E0 2521:753.695 JLINK_ReadMemU32(0xE000E004, 0x1 Items)
T67E0 2521:753.705   CPU_ReadMem(4 bytes @ 0xE000E004)
T67E0 2521:754.060   Data:  00 00 00 00
T67E0 2521:754.111 - 0.419ms returns 1 (0x1)
T67E0 2521:754.130 JLINK_HasError()
T67E0 2521:754.140 JLINK_ReadReg(R15 (PC))
T67E0 2521:754.148 - 0.011ms returns 0x00000148
T67E0 2521:754.156 JLINK_ReadReg(XPSR)
T67E0 2521:754.163 - 0.009ms returns 0xC1000000
T67E0 2521:826.301 JLINK_HasError()
T67E0 2521:826.325 JLINK_SetResetType(JLINKARM_CM3_RESET_TYPE_CONNECT_UNDER_RESET)
T67E0 2521:826.332 - 0.010ms returns JLINKARM_CM3_RESET_TYPE_CONNECT_UNDER_RESET
T67E0 2521:826.340 JLINK_Reset()
T67E0 2521:826.354   CPU_WriteMem(4 bytes @ 0xE000EDF0)
T67E0 2521:826.764   CPU_WriteMem(4 bytes @ 0xE000EDFC)
T67E0 2521:827.179   Reset: Halt core after reset via DEMCR.VC_CORERESET.
T67E0 2521:827.654   Reset: Reset device via AIRCR.SYSRESETREQ.
T67E0 2521:827.669   CPU_WriteMem(4 bytes @ 0xE000ED0C)
T67E0 2521:882.494   CPU_ReadMem(4 bytes @ 0xE000EDF0)
T67E0 2521:882.889   CPU_ReadMem(4 bytes @ 0xE000EDF0)
T67E0 2521:883.291   CPU_WriteMem(4 bytes @ 0xE000EDFC)
T67E0 2521:889.198   CPU_ReadMem(4 bytes @ 0xE000EDF0)
T67E0 2521:892.614   CPU_WriteMem(4 bytes @ 0xE0002000)
T67E0 2521:893.028   CPU_ReadMem(4 bytes @ 0xE000EDFC)
T67E0 2521:893.489   CPU_ReadMem(4 bytes @ 0xE0001000)
T67E0 2521:893.864   CPU_WriteMem(4 bytes @ 0xE0001000)
T67E0 2521:894.268 - 67.943ms
T67E0 2521:894.338 JLINK_HasError()
T67E0 2521:894.351 JLINK_ReadReg(R15 (PC))
T67E0 2521:894.363 - 0.016ms returns 0x00000148
T67E0 2521:894.373 JLINK_ReadReg(XPSR)
T67E0 2521:894.382 - 0.012ms returns 0xC1000000
T67E0 2521:894.959 JLINK_ReadMemEx(0x000000C0, 0x3C Bytes, Flags = 0x02000000)
T67E0 2521:894.979   CPU_ReadMem(60 bytes @ 0x000000C0)
T67E0 2521:895.766   Data:  00 F0 02 F8 00 F0 30 F8 0C A0 30 C8 08 38 24 18 ...
T67E0 2521:895.800 - 0.845ms returns 60 (0x3C)
T67E0 2521:895.819 JLINK_ReadMemEx(0x000000FC, 0x3C Bytes, Flags = 0x02000000)
T67E0 2521:895.832   CPU_ReadMem(60 bytes @ 0x000000FC)
T67E0 2521:896.607   Data:  F0 04 00 00 00 05 00 00 00 23 00 24 00 25 00 26 ...
T67E0 2521:896.634 - 0.819ms returns 60 (0x3C)
T67E0 2521:896.658 JLINK_ReadMemEx(0x00000138, 0x3C Bytes, Flags = 0x02000000)
T67E0 2521:896.674   CPU_ReadMem(60 bytes @ 0x00000138)
T67E0 2521:897.455   Data:  43 F8 03 B4 FF F7 F2 FF 03 BC 00 F0 49 F8 00 00 ...
T67E0 2521:897.471 - 0.816ms returns 60 (0x3C)
T67E0 2522:320.297 JLINK_ReadMemEx(0x4D000000, 0x38 Bytes, Flags = 0x02000004)
T67E0 2522:320.335   CPU_ReadMem(56 bytes @ 0x4D000000)
T67E0 2522:321.080   Data:  00 00 00 00 10 00 00 00 00 00 00 00 00 00 00 00 ...
T67E0 2522:321.090 - 0.796ms returns 56 (0x38)
T67E0 2522:321.101 JLINK_ReadMemEx(0x4D000000, 0x4 Bytes, Flags = 0x02000004)
T67E0 2522:321.108   CPU_ReadMem(4 bytes @ 0x4D000000)
T67E0 2522:321.427   Data:  00 00 00 00
T67E0 2522:321.436 - 0.338ms returns 4 (0x4)
T67E0 2522:321.445 JLINK_ReadMemEx(0x4D000004, 0x4 Bytes, Flags = 0x02000004)
T67E0 2522:321.452   CPU_ReadMem(4 bytes @ 0x4D000004)
T67E0 2522:321.764   Data:  10 00 00 00
T67E0 2522:321.772 - 0.330ms returns 4 (0x4)
T67E0 2522:321.781 JLINK_ReadMemEx(0x4D000008, 0x4 Bytes, Flags = 0x02000004)
T67E0 2522:321.788   CPU_ReadMem(4 bytes @ 0x4D000008)
T67E0 2522:322.098   Data:  00 00 00 00
T67E0 2522:322.106 - 0.327ms returns 4 (0x4)
T67E0 2522:322.114 JLINK_ReadMemEx(0x4D00000C, 0x4 Bytes, Flags = 0x02000004)
T67E0 2522:322.121   CPU_ReadMem(4 bytes @ 0x4D00000C)
T67E0 2522:322.427   Data:  00 00 00 00
T67E0 2522:322.436 - 0.324ms returns 4 (0x4)
T67E0 2522:322.444 JLINK_ReadMemEx(0x4D000010, 0x4 Bytes, Flags = 0x02000004)
T67E0 2522:322.451   CPU_ReadMem(4 bytes @ 0x4D000010)
T67E0 2522:322.850   Data:  00 00 00 00
T67E0 2522:322.859 - 0.417ms returns 4 (0x4)
T67E0 2522:322.868 JLINK_ReadMemEx(0x4D000014, 0x4 Bytes, Flags = 0x02000004)
T67E0 2522:322.874   CPU_ReadMem(4 bytes @ 0x4D000014)
T67E0 2522:323.185   Data:  10 00 00 00
T67E0 2522:323.194 - 0.329ms returns 4 (0x4)
T67E0 2522:323.202 JLINK_ReadMemEx(0x4D000018, 0x4 Bytes, Flags = 0x02000004)
T67E0 2522:323.209   CPU_ReadMem(4 bytes @ 0x4D000018)
T67E0 2522:323.602   Data:  00 00 00 00
T67E0 2522:323.611 - 0.411ms returns 4 (0x4)
T67E0 2522:323.620 JLINK_ReadMemEx(0x4D00001C, 0x4 Bytes, Flags = 0x02000004)
T67E0 2522:323.626   CPU_ReadMem(4 bytes @ 0x4D00001C)
T67E0 2522:323.937   Data:  00 00 00 00
T67E0 2522:323.946 - 0.329ms returns 4 (0x4)
T67E0 2522:323.954 JLINK_ReadMemEx(0x4D000020, 0x4 Bytes, Flags = 0x02000004)
T67E0 2522:323.961   CPU_ReadMem(4 bytes @ 0x4D000020)
T67E0 2522:324.351   Data:  00 00 00 00
T67E0 2522:324.360 - 0.408ms returns 4 (0x4)
T67E0 2522:324.368 JLINK_ReadMemEx(0x4D000024, 0x4 Bytes, Flags = 0x02000004)
T67E0 2522:324.375   CPU_ReadMem(4 bytes @ 0x4D000024)
T67E0 2522:324.687   Data:  00 00 00 00
T67E0 2522:324.696 - 0.331ms returns 4 (0x4)
T67E0 2522:324.705 JLINK_ReadMemEx(0x4D000028, 0x4 Bytes, Flags = 0x02000004)
T67E0 2522:324.711   CPU_ReadMem(4 bytes @ 0x4D000028)
T67E0 2522:325.101   Data:  00 00 00 00
T67E0 2522:325.110 - 0.408ms returns 4 (0x4)
T67E0 2522:325.119 JLINK_ReadMemEx(0x4D00002C, 0x4 Bytes, Flags = 0x02000004)
T67E0 2522:325.125   CPU_ReadMem(4 bytes @ 0x4D00002C)
T67E0 2522:325.453   Data:  00 00 00 00
T67E0 2522:325.461 - 0.345ms returns 4 (0x4)
T67E0 2522:325.470 JLINK_ReadMemEx(0x4D000030, 0x4 Bytes, Flags = 0x02000004)
T67E0 2522:325.476   CPU_ReadMem(4 bytes @ 0x4D000030)
T67E0 2522:325.788   Data:  00 00 00 00
T67E0 2522:325.796 - 0.329ms returns 4 (0x4)
T67E0 2522:325.805 JLINK_ReadMemEx(0x4D000034, 0x4 Bytes, Flags = 0x02000004)
T67E0 2522:325.811   CPU_ReadMem(4 bytes @ 0x4D000034)
T67E0 2522:326.123   Data:  00 00 00 00
T67E0 2522:326.132 - 0.329ms returns 4 (0x4)
T67E0 2522:326.141 JLINK_ReadMemEx(0x4D000038, 0x4 Bytes, Flags = 0x02000004)
T67E0 2522:326.148   CPU_ReadMem(4 bytes @ 0x4D000038)
T67E0 2522:326.453   Data:  00 00 00 00
T67E0 2522:326.461 - 0.322ms returns 4 (0x4)
T67E0 2522:326.470 JLINK_ReadMemEx(0x4D000038, 0x4 Bytes, Flags = 0x02000004)
T67E0 2522:326.476   CPU_ReadMem(4 bytes @ 0x4D000038)
T67E0 2522:326.788   Data:  00 00 00 00
T67E0 2522:326.797 - 0.330ms returns 4 (0x4)
T67E0 2526:315.547 JLINK_HasError()
T67E0 2526:315.578 JLINK_ReadReg(R0)
T67E0 2526:315.948 - 0.379ms returns 0x00000010
T67E0 2526:315.966 JLINK_ReadReg(R1)
T67E0 2526:315.973 - 0.009ms returns 0x00000003
T67E0 2526:315.980 JLINK_ReadReg(R2)
T67E0 2526:316.035 - 0.057ms returns 0x20000664
T67E0 2526:316.043 JLINK_ReadReg(R3)
T67E0 2526:316.049 - 0.009ms returns 0x49800000
T67E0 2526:316.056 JLINK_ReadReg(R4)
T67E0 2526:316.062 - 0.008ms returns 0x00000020
T67E0 2526:316.070 JLINK_ReadReg(R5)
T67E0 2526:316.076 - 0.008ms returns 0x00000002
T67E0 2526:316.083 JLINK_ReadReg(R6)
T67E0 2526:316.089 - 0.009ms returns 0x00DFDFDF
T67E0 2526:316.097 JLINK_ReadReg(R7)
T67E0 2526:316.103 - 0.008ms returns 0x0000001A
T67E0 2526:316.110 JLINK_ReadReg(R8)
T67E0 2526:316.117 - 0.009ms returns 0x00000000
T67E0 2526:316.124 JLINK_ReadReg(R9)
T67E0 2526:316.130 - 0.008ms returns 0x200001E4
T67E0 2526:316.138 JLINK_ReadReg(R10)
T67E0 2526:316.144 - 0.009ms returns 0x000005FC
T67E0 2526:316.151 JLINK_ReadReg(R11)
T67E0 2526:316.157 - 0.008ms returns 0x000005FC
T67E0 2526:316.165 JLINK_ReadReg(R12)
T67E0 2526:316.171 - 0.008ms returns 0x00000000
T67E0 2526:316.178 JLINK_ReadReg(R13 (SP))
T67E0 2526:316.185 - 0.009ms returns 0x20000878
T67E0 2526:316.192 JLINK_ReadReg(R14)
T67E0 2526:316.198 - 0.008ms returns 0x000005A1
T67E0 2526:316.206 JLINK_ReadReg(R15 (PC))
T67E0 2526:316.212 - 0.009ms returns 0x00000148
T67E0 2526:316.220 JLINK_ReadReg(XPSR)
T67E0 2526:316.226 - 0.009ms returns 0xC1000000
T67E0 2526:316.233 JLINK_ReadReg(MSP)
T67E0 2526:316.240 - 0.009ms returns 0x20000878
T67E0 2526:316.247 JLINK_ReadReg(PSP)
T67E0 2526:316.253 - 0.008ms returns 0x20002000
T67E0 2526:316.261 JLINK_ReadReg(CFBP)
T67E0 2526:316.267 - 0.008ms returns 0x00000000
T67E0 2526:567.965 JLINK_ReadMemEx(0x2000006C, 0x4 Bytes, Flags = 0x02000000)
T67E0 2526:568.002   CPU_ReadMem(4 bytes @ 0x2000006C)
T67E0 2526:568.387   Data:  DB 11 00 00
T67E0 2526:568.406 - 0.444ms returns 4 (0x4)
T67E0 2526:571.888 JLINK_ReadMemEx(0x20000064, 0x4 Bytes, Flags = 0x02000000)
T67E0 2526:571.909   CPU_ReadMem(4 bytes @ 0x20000064)
T67E0 2526:572.270   Data:  7C 1D 00 00
T67E0 2526:572.281 - 0.396ms returns 4 (0x4)
T67E0 2526:572.292 JLINK_ReadMemEx(0x00001D7C, 0x4 Bytes, Flags = 0x02000000)
T67E0 2526:572.300   CPU_ReadMem(4 bytes @ 0x00001D7C)
T67E0 2526:572.641   Data:  41 71 03 20
T67E0 2526:572.653 - 0.364ms returns 4 (0x4)
T67E0 2526:575.488 JLINK_ReadMemEx(0x20000068, 0x4 Bytes, Flags = 0x02000000)
T67E0 2526:575.507   CPU_ReadMem(4 bytes @ 0x20000068)
T67E0 2526:575.857   Data:  FF 7F 00 00
T67E0 2526:575.871 - 0.385ms returns 4 (0x4)
T67E0 2526:577.305 JLINK_ReadMemEx(0x20000061, 0x1 Bytes, Flags = 0x02000000)
T67E0 2526:577.318   CPU_ReadMem(1 bytes @ 0x20000061)
T67E0 2526:577.678   Data:  DF
T67E0 2526:577.699 - 0.398ms returns 1 (0x1)
T5F08 2526:998.354 JLINK_ReadMemEx(0x00000148, 0x2 Bytes, Flags = 0x02000000)
T5F08 2526:998.406   CPU_ReadMem(2 bytes @ 0x00000148)
T5F08 2526:998.862   Data:  07 48
T5F08 2526:998.897 - 0.550ms returns 2 (0x2)
T5F08 2526:998.920 JLINK_HasError()
T5F08 2526:998.959 JLINK_SetBPEx(Addr = 0x00000530, Type = 0xFFFFFFF2)
T5F08 2526:998.981 - 0.040ms returns 0x00000001
T5F08 2526:998.997 JLINK_HasError()
T5F08 2526:999.037 JLINK_SetBPEx(Addr = 0x000005BA, Type = 0xFFFFFFF2)
T5F08 2526:999.051 - 0.018ms returns 0x00000002
T5F08 2526:999.062 JLINK_HasError()
T5F08 2526:999.073 JLINK_HasError()
T5F08 2526:999.117 JLINK_Go()
T5F08 2526:999.518   CPU_WriteMem(4 bytes @ 0xE0002000)
T5F08 2526:999.991   CPU_WriteMem(4 bytes @ 0xE0002000)
T5F08 2527:000.409   CPU_ReadMem(4 bytes @ 0xE0001000)
T5F08 2527:000.827   CPU_WriteMem(4 bytes @ 0xE0001000)
T5F08 2527:001.286   CPU_WriteMem(4 bytes @ 0xE0002008)
T5F08 2527:001.320   CPU_WriteMem(4 bytes @ 0xE000200C)
T5F08 2527:001.338   CPU_WriteMem(4 bytes @ 0xE0002010)
T5F08 2527:001.353   CPU_WriteMem(4 bytes @ 0xE0002014)
T5F08 2527:002.553   CPU_WriteMem(4 bytes @ 0xE0001004)
T5F08 2527:003.479 - 4.384ms
T5F08 2527:103.795 JLINK_HasError()
T5F08 2527:103.859 JLINK_IsHalted()
T5F08 2527:107.035 - 3.209ms returns TRUE
T5F08 2527:107.091 JLINK_HasError()
T5F08 2527:107.146 JLINK_Halt()
T5F08 2527:107.165 - 0.026ms returns 0x00
T5F08 2527:107.185 JLINK_IsHalted()
T5F08 2527:107.210 - 0.034ms returns TRUE
T5F08 2527:107.231 JLINK_IsHalted()
T5F08 2527:107.246 - 0.020ms returns TRUE
T5F08 2527:107.262 JLINK_IsHalted()
T5F08 2527:107.277 - 0.022ms returns TRUE
T5F08 2527:107.296 JLINK_HasError()
T5F08 2527:107.316 JLINK_ReadReg(R15 (PC))
T5F08 2527:107.334 - 0.026ms returns 0x00000530
T5F08 2527:107.354 JLINK_ReadReg(XPSR)
T5F08 2527:107.369 - 0.022ms returns 0x01000000
T5F08 2527:107.393 JLINK_HasError()
T5F08 2527:107.419 JLINK_ClrBPEx(BPHandle = 0x00000001)
T5F08 2527:107.437 - 0.024ms returns 0x00
T5F08 2527:107.455 JLINK_HasError()
T5F08 2527:107.473 JLINK_ClrBPEx(BPHandle = 0x00000002)
T5F08 2527:107.488 - 0.020ms returns 0x00
T5F08 2527:107.506 JLINK_HasError()
T5F08 2527:107.525 JLINK_HasError()
T5F08 2527:107.546 JLINK_ReadMemU32(0xE000ED30, 0x1 Items)
T5F08 2527:107.571   CPU_ReadMem(4 bytes @ 0xE000ED30)
T5F08 2527:108.000   Data:  02 00 00 00
T5F08 2527:108.037 - 0.501ms returns 1 (0x1)
T5F08 2527:108.062 JLINK_ReadMemU32(0xE0001028, 0x1 Items)
T5F08 2527:108.084   CPU_ReadMem(4 bytes @ 0xE0001028)
T5F08 2527:108.479   Data:  00 00 00 00
T5F08 2527:108.503   Debug reg: DWT_FUNC[0]
T5F08 2527:108.523 - 0.469ms returns 1 (0x1)
T5F08 2527:108.545 JLINK_ReadMemU32(0xE0001038, 0x1 Items)
T5F08 2527:108.566   CPU_ReadMem(4 bytes @ 0xE0001038)
T5F08 2527:108.962   Data:  00 00 00 00
T5F08 2527:108.994   Debug reg: DWT_FUNC[1]
T5F08 2527:109.009 - 0.469ms returns 1 (0x1)
T5F08 2527:109.070 JLINK_HasError()
T5F08 2527:109.098 JLINK_ReadReg(R0)
T5F08 2527:109.112 - 0.019ms returns 0x20000078
T5F08 2527:109.127 JLINK_ReadReg(R1)
T5F08 2527:109.137 - 0.015ms returns 0x20000078
T5F08 2527:109.151 JLINK_ReadReg(R2)
T5F08 2527:109.161 - 0.015ms returns 0x20000078
T5F08 2527:109.175 JLINK_ReadReg(R3)
T5F08 2527:109.186 - 0.015ms returns 0x20000078
T5F08 2527:109.199 JLINK_ReadReg(R4)
T5F08 2527:109.209 - 0.015ms returns 0x000005FC
T5F08 2527:109.222 JLINK_ReadReg(R5)
T5F08 2527:109.233 - 0.017ms returns 0x20000000
T5F08 2527:109.246 JLINK_ReadReg(R6)
T5F08 2527:109.257 - 0.017ms returns 0x00000000
T5F08 2527:109.270 JLINK_ReadReg(R7)
T5F08 2527:109.281 - 0.017ms returns 0x00000000
T5F08 2527:109.294 JLINK_ReadReg(R8)
T5F08 2527:109.305 - 0.017ms returns 0x00000000
T5F08 2527:109.319 JLINK_ReadReg(R9)
T5F08 2527:109.330 - 0.015ms returns 0x200001E4
T5F08 2527:109.342 JLINK_ReadReg(R10)
T5F08 2527:109.353 - 0.015ms returns 0x000005FC
T5F08 2527:109.366 JLINK_ReadReg(R11)
T5F08 2527:109.377 - 0.016ms returns 0x000005FC
T5F08 2527:109.403 JLINK_ReadReg(R12)
T5F08 2527:109.453 - 0.061ms returns 0x00000000
T5F08 2527:109.479 JLINK_ReadReg(R13 (SP))
T5F08 2527:109.497 - 0.023ms returns 0x20000878
T5F08 2527:109.514 JLINK_ReadReg(R14)
T5F08 2527:109.529 - 0.023ms returns 0x00000137
T5F08 2527:109.548 JLINK_ReadReg(R15 (PC))
T5F08 2527:109.563 - 0.022ms returns 0x00000530
T5F08 2527:109.581 JLINK_ReadReg(XPSR)
T5F08 2527:109.595 - 0.019ms returns 0x01000000
T5F08 2527:109.611 JLINK_ReadReg(MSP)
T5F08 2527:109.627 - 0.022ms returns 0x20000878
T5F08 2527:109.644 JLINK_ReadReg(PSP)
T5F08 2527:109.658 - 0.021ms returns 0x20002000
T5F08 2527:109.674 JLINK_ReadReg(CFBP)
T5F08 2527:109.689 - 0.021ms returns 0x00000000
T67E0 2527:194.548 JLINK_HasError()
T67E0 2527:194.921 JLINK_ReadMemEx(0x2000006C, 0x4 Bytes, Flags = 0x02000000)
T67E0 2527:194.965   CPU_ReadMem(4 bytes @ 0x2000006C)
T67E0 2527:195.382   Data:  00 00 00 00
T67E0 2527:195.408 - 0.494ms returns 4 (0x4)
T67E0 2527:195.503 JLINK_ReadMemEx(0x20000884, 0x20 Bytes, Flags = 0x02000000)
T67E0 2527:195.528   CPU_ReadMem(32 bytes @ 0x20000884)
T67E0 2527:196.095   Data:  53 01 00 00 00 00 00 00 00 00 00 00 00 00 00 00 ...
T67E0 2527:196.116 - 0.618ms returns 32 (0x20)
T67E0 2527:199.249 JLINK_ReadMemEx(0x20000064, 0x4 Bytes, Flags = 0x02000000)
T67E0 2527:199.294   CPU_ReadMem(4 bytes @ 0x20000064)
T67E0 2527:199.699   Data:  00 00 00 00
T67E0 2527:199.729 - 0.486ms returns 4 (0x4)
T67E0 2527:199.751 JLINK_ReadMemEx(0x00000000, 0x4 Bytes, Flags = 0x02000000)
T67E0 2527:199.779   CPU_ReadMem(64 bytes @ 0x00000000)
T67E0 2527:200.684    -- Updating DA cache (64 bytes @ 0x00000000)
T67E0 2527:200.713    -- Read from DA cache (4 bytes @ 0x00000000)
T67E0 2527:200.728   Data:  78 08 00 20
T67E0 2527:200.743 - 0.997ms returns 4 (0x4)
T67E0 2527:201.117 JLINK_ReadMemEx(0x20000068, 0x4 Bytes, Flags = 0x02000000)
T67E0 2527:201.142   CPU_ReadMem(4 bytes @ 0x20000068)
T67E0 2527:201.531   Data:  00 00 00 00
T67E0 2527:201.557 - 0.445ms returns 4 (0x4)
T67E0 2527:201.630 JLINK_ReadMemEx(0x20000061, 0x1 Bytes, Flags = 0x02000000)
T67E0 2527:201.669   CPU_ReadMem(1 bytes @ 0x20000061)
T67E0 2527:202.056   Data:  00
T67E0 2527:202.085 - 0.462ms returns 1 (0x1)
T67E0 2527:203.804 JLINK_ReadMemEx(0x20000A84, 0x20 Bytes, Flags = 0x02000000)
T67E0 2527:203.847   CPU_ReadMem(32 bytes @ 0x20000A84)
T67E0 2527:204.454   Data:  00 00 00 00 00 00 00 00 00 00 00 00 00 00 00 00 ...
T67E0 2527:204.486 - 0.687ms returns 32 (0x20)
T67E0 2527:205.898 JLINK_ReadMemEx(0x4D000000, 0x38 Bytes, Flags = 0x02000004)
T67E0 2527:205.925   CPU_ReadMem(56 bytes @ 0x4D000000)
T67E0 2527:206.641   Data:  00 00 00 00 10 00 00 00 00 00 00 00 00 00 00 00 ...
T67E0 2527:206.670 - 0.779ms returns 56 (0x38)
T67E0 2527:206.693 JLINK_ReadMemEx(0x4D000000, 0x4 Bytes, Flags = 0x02000004)
T67E0 2527:206.712   CPU_ReadMem(4 bytes @ 0x4D000000)
T67E0 2527:207.096   Data:  00 00 00 00
T67E0 2527:207.134 - 0.446ms returns 4 (0x4)
T67E0 2527:207.152 JLINK_ReadMemEx(0x4D000004, 0x4 Bytes, Flags = 0x02000004)
T67E0 2527:207.166   CPU_ReadMem(4 bytes @ 0x4D000004)
T67E0 2527:207.531   Data:  10 00 00 00
T67E0 2527:207.560 - 0.414ms returns 4 (0x4)
T67E0 2527:207.583 JLINK_ReadMemEx(0x4D000008, 0x4 Bytes, Flags = 0x02000004)
T67E0 2527:207.601   CPU_ReadMem(4 bytes @ 0x4D000008)
T67E0 2527:207.980   Data:  00 00 00 00
T67E0 2527:208.007 - 0.430ms returns 4 (0x4)
T67E0 2527:208.035 JLINK_ReadMemEx(0x4D00000C, 0x4 Bytes, Flags = 0x02000004)
T67E0 2527:208.058   CPU_ReadMem(4 bytes @ 0x4D00000C)
T67E0 2527:208.430   Data:  00 00 00 00
T67E0 2527:208.453 - 0.423ms returns 4 (0x4)
T67E0 2527:208.472 JLINK_ReadMemEx(0x4D000010, 0x4 Bytes, Flags = 0x02000004)
T67E0 2527:208.491   CPU_ReadMem(4 bytes @ 0x4D000010)
T67E0 2527:208.859   Data:  00 00 00 00
T67E0 2527:208.877 - 0.408ms returns 4 (0x4)
T67E0 2527:208.891 JLINK_ReadMemEx(0x4D000014, 0x4 Bytes, Flags = 0x02000004)
T67E0 2527:208.903   CPU_ReadMem(4 bytes @ 0x4D000014)
T67E0 2527:209.259   Data:  10 00 00 00
T67E0 2527:209.286 - 0.401ms returns 4 (0x4)
T67E0 2527:209.305 JLINK_ReadMemEx(0x4D000018, 0x4 Bytes, Flags = 0x02000004)
T67E0 2527:209.322   CPU_ReadMem(4 bytes @ 0x4D000018)
T67E0 2527:209.695   Data:  00 00 00 00
T67E0 2527:209.713 - 0.411ms returns 4 (0x4)
T67E0 2527:209.725 JLINK_ReadMemEx(0x4D00001C, 0x4 Bytes, Flags = 0x02000004)
T67E0 2527:209.736   CPU_ReadMem(4 bytes @ 0x4D00001C)
T67E0 2527:210.117   Data:  00 00 00 00
T67E0 2527:210.128 - 0.406ms returns 4 (0x4)
T67E0 2527:210.140 JLINK_ReadMemEx(0x4D000020, 0x4 Bytes, Flags = 0x02000004)
T67E0 2527:210.149   CPU_ReadMem(4 bytes @ 0x4D000020)
T67E0 2527:210.481   Data:  00 00 00 00
T67E0 2527:210.508 - 0.374ms returns 4 (0x4)
T67E0 2527:210.528 JLINK_ReadMemEx(0x4D000024, 0x4 Bytes, Flags = 0x02000004)
T67E0 2527:210.546   CPU_ReadMem(4 bytes @ 0x4D000024)
T67E0 2527:210.914   Data:  00 00 00 00
T67E0 2527:210.935 - 0.413ms returns 4 (0x4)
T67E0 2527:210.953 JLINK_ReadMemEx(0x4D000028, 0x4 Bytes, Flags = 0x02000004)
T67E0 2527:210.969   CPU_ReadMem(4 bytes @ 0x4D000028)
T67E0 2527:211.386   Data:  00 00 00 00
T67E0 2527:211.423 - 0.477ms returns 4 (0x4)
T67E0 2527:211.460 JLINK_ReadMemEx(0x4D00002C, 0x4 Bytes, Flags = 0x02000004)
T67E0 2527:211.478   CPU_ReadMem(4 bytes @ 0x4D00002C)
T67E0 2527:211.852   Data:  00 00 00 00
T67E0 2527:211.874 - 0.420ms returns 4 (0x4)
T67E0 2527:211.894 JLINK_ReadMemEx(0x4D000030, 0x4 Bytes, Flags = 0x02000004)
T67E0 2527:211.918   CPU_ReadMem(4 bytes @ 0x4D000030)
T67E0 2527:212.272   Data:  00 00 00 00
T67E0 2527:212.290 - 0.399ms returns 4 (0x4)
T67E0 2527:212.303 JLINK_ReadMemEx(0x4D000034, 0x4 Bytes, Flags = 0x02000004)
T67E0 2527:212.312   CPU_ReadMem(4 bytes @ 0x4D000034)
T67E0 2527:212.642   Data:  00 00 00 00
T67E0 2527:212.653 - 0.353ms returns 4 (0x4)
T67E0 2527:212.664 JLINK_ReadMemEx(0x4D000038, 0x4 Bytes, Flags = 0x02000004)
T67E0 2527:212.673   CPU_ReadMem(4 bytes @ 0x4D000038)
T67E0 2527:212.992   Data:  00 00 00 00
T67E0 2527:213.003 - 0.341ms returns 4 (0x4)
T67E0 2527:213.013 JLINK_ReadMemEx(0x4D000038, 0x4 Bytes, Flags = 0x02000004)
T67E0 2527:213.022   CPU_ReadMem(4 bytes @ 0x4D000038)
T67E0 2527:213.365   Data:  00 00 00 00
T67E0 2527:213.380 - 0.370ms returns 4 (0x4)
T67E0 2527:218.733 JLINK_ReadMemEx(0x00000528, 0x3C Bytes, Flags = 0x02000000)
T67E0 2527:218.773   CPU_ReadMem(128 bytes @ 0x00000500)
T67E0 2527:220.033    -- Updating DA cache (128 bytes @ 0x00000500)
T67E0 2527:220.050    -- Read from DA cache (60 bytes @ 0x00000528)
T67E0 2527:220.063   Data:  80 BD C0 46 64 10 00 00 F0 B5 FF B0 FF B0 85 B0 ...
T67E0 2527:220.075 - 1.346ms returns 60 (0x3C)
T67E0 2534:978.670 JLINK_ReadMemEx(0x00000E00, 0x200 Bytes, Flags = 0x02000000)
T67E0 2534:978.708   CPU_ReadMem(512 bytes @ 0x00000E00)
T67E0 2534:982.617    -- Updating DA cache (512 bytes @ 0x00000E00)
T67E0 2534:982.632    -- Read from DA cache (512 bytes @ 0x00000E00)
T67E0 2534:982.642   Data:  85 85 85 85 85 85 85 85 85 85 85 85 85 85 85 85 ...
T67E0 2534:982.651 - 3.984ms returns 512 (0x200)
T67E0 2534:982.664 JLINK_ReadMemEx(0x00001000, 0x157 Bytes, Flags = 0x02000000)
T67E0 2534:982.673   CPU_ReadMem(384 bytes @ 0x00001000)
T67E0 2534:985.719    -- Updating DA cache (384 bytes @ 0x00001000)
T67E0 2534:985.738    -- Read from DA cache (343 bytes @ 0x00001000)
T67E0 2534:985.748   Data:  DF DF DF DF DF DF DF DF DF DF DF DF DF DF DF DF ...
T67E0 2534:985.757 - 3.096ms returns 343 (0x157)
T67E0 2536:483.421 JLINK_HasError()
T67E0 2536:483.452 JLINK_SetResetType(JLINKARM_CM3_RESET_TYPE_CONNECT_UNDER_RESET)
T67E0 2536:483.459 - 0.010ms returns JLINKARM_CM3_RESET_TYPE_CONNECT_UNDER_RESET
T67E0 2536:483.468 JLINK_Reset()
T67E0 2536:483.488   CPU_WriteMem(4 bytes @ 0xE000EDF0)
T67E0 2536:483.893   CPU_WriteMem(4 bytes @ 0xE000EDFC)
T67E0 2536:484.258   Reset: Halt core after reset via DEMCR.VC_CORERESET.
T67E0 2536:484.681   Reset: Reset device via AIRCR.SYSRESETREQ.
T67E0 2536:484.691   CPU_WriteMem(4 bytes @ 0xE000ED0C)
T67E0 2536:538.202   CPU_ReadMem(4 bytes @ 0xE000EDF0)
T67E0 2536:538.526   CPU_ReadMem(4 bytes @ 0xE000EDF0)
T67E0 2536:539.144   CPU_WriteMem(4 bytes @ 0xE000EDFC)
T67E0 2536:545.218   CPU_ReadMem(4 bytes @ 0xE000EDF0)
T67E0 2536:548.493   CPU_WriteMem(4 bytes @ 0xE0002000)
T67E0 2536:548.923   CPU_ReadMem(4 bytes @ 0xE000EDFC)
T67E0 2536:549.238   CPU_ReadMem(4 bytes @ 0xE0001000)
T67E0 2536:549.647   CPU_WriteMem(4 bytes @ 0xE0001000)
T67E0 2536:549.989 - 66.524ms
T67E0 2536:550.061 JLINK_HasError()
T67E0 2536:550.070 JLINK_ReadReg(R15 (PC))
T67E0 2536:550.079 - 0.011ms returns 0x00000148
T67E0 2536:550.087 JLINK_ReadReg(XPSR)
T67E0 2536:550.093 - 0.009ms returns 0xC1000000
T67E0 2536:550.146 JLINK_HasError()
T67E0 2536:550.154 JLINK_ReadReg(R0)
T67E0 2536:550.161 - 0.009ms returns 0x20000078
T67E0 2536:550.168 JLINK_ReadReg(R1)
T67E0 2536:550.175 - 0.009ms returns 0x20000078
T67E0 2536:550.182 JLINK_ReadReg(R2)
T67E0 2536:550.188 - 0.009ms returns 0x20000078
T67E0 2536:550.199 JLINK_ReadReg(R3)
T67E0 2536:550.205 - 0.009ms returns 0x20000078
T67E0 2536:550.213 JLINK_ReadReg(R4)
T67E0 2536:550.219 - 0.009ms returns 0x000005FC
T67E0 2536:550.226 JLINK_ReadReg(R5)
T67E0 2536:550.232 - 0.008ms returns 0x20000000
T67E0 2536:550.240 JLINK_ReadReg(R6)
T67E0 2536:550.246 - 0.008ms returns 0x00000000
T67E0 2536:550.253 JLINK_ReadReg(R7)
T67E0 2536:550.259 - 0.008ms returns 0x00000000
T67E0 2536:550.267 JLINK_ReadReg(R8)
T67E0 2536:550.273 - 0.009ms returns 0x00000000
T67E0 2536:550.280 JLINK_ReadReg(R9)
T67E0 2536:550.286 - 0.008ms returns 0x200001E4
T67E0 2536:550.341 JLINK_ReadReg(R10)
T67E0 2536:550.350 - 0.011ms returns 0x000005FC
T67E0 2536:550.357 JLINK_ReadReg(R11)
T67E0 2536:550.364 - 0.009ms returns 0x000005FC
T67E0 2536:550.371 JLINK_ReadReg(R12)
T67E0 2536:550.377 - 0.008ms returns 0x00000000
T67E0 2536:550.384 JLINK_ReadReg(R13 (SP))
T67E0 2536:550.391 - 0.009ms returns 0x20000878
T67E0 2536:550.398 JLINK_ReadReg(R14)
T67E0 2536:550.405 - 0.009ms returns 0x00000137
T67E0 2536:550.412 JLINK_ReadReg(R15 (PC))
T67E0 2536:550.418 - 0.008ms returns 0x00000148
T67E0 2536:550.426 JLINK_ReadReg(XPSR)
T67E0 2536:550.432 - 0.008ms returns 0xC1000000
T67E0 2536:550.440 JLINK_ReadReg(MSP)
T67E0 2536:550.446 - 0.009ms returns 0x20000878
T67E0 2536:550.454 JLINK_ReadReg(PSP)
T67E0 2536:550.460 - 0.008ms returns 0x20002000
T67E0 2536:550.467 JLINK_ReadReg(CFBP)
T67E0 2536:550.473 - 0.008ms returns 0x00000000
T67E0 2536:550.496 JLINK_ReadMemEx(0x00000E00, 0x200 Bytes, Flags = 0x02000000)
T67E0 2536:550.505   CPU_ReadMem(512 bytes @ 0x00000E00)
T67E0 2536:554.490   Data:  85 85 85 85 85 85 85 85 85 85 85 85 85 85 85 85 ...
T67E0 2536:554.506 - 4.013ms returns 512 (0x200)
T67E0 2536:554.516 JLINK_ReadMemEx(0x00001000, 0x157 Bytes, Flags = 0x02000000)
T67E0 2536:554.526   CPU_ReadMem(343 bytes @ 0x00001000)
T67E0 2536:557.522   Data:  DF DF DF DF DF DF DF DF DF DF DF DF DF DF DF DF ...
T67E0 2536:557.534 - 3.021ms returns 343 (0x157)
T67E0 2536:559.133 JLINK_HasError()
T67E0 2536:559.519 JLINK_ReadMemEx(0x000000C0, 0x3C Bytes, Flags = 0x02000000)
T67E0 2536:559.531   CPU_ReadMem(60 bytes @ 0x000000C0)
T67E0 2536:560.280   Data:  00 F0 02 F8 00 F0 30 F8 0C A0 30 C8 08 38 24 18 ...
T67E0 2536:560.289 - 0.773ms returns 60 (0x3C)
T67E0 2536:560.303 JLINK_ReadMemEx(0x000000FC, 0x3C Bytes, Flags = 0x02000000)
T67E0 2536:560.310   CPU_ReadMem(60 bytes @ 0x000000FC)
T67E0 2536:561.068   Data:  F0 04 00 00 00 05 00 00 00 23 00 24 00 25 00 26 ...
T67E0 2536:561.108 - 0.814ms returns 60 (0x3C)
T67E0 2536:561.145 JLINK_ReadMemEx(0x00000138, 0x3C Bytes, Flags = 0x02000000)
T67E0 2536:561.177   CPU_ReadMem(60 bytes @ 0x00000138)
T67E0 2536:561.931   Data:  43 F8 03 B4 FF F7 F2 FF 03 BC 00 F0 49 F8 00 00 ...
T67E0 2536:561.948 - 0.806ms returns 60 (0x3C)
T67E0 2536:960.229 JLINK_ReadMemEx(0x2000006C, 0x4 Bytes, Flags = 0x02000000)
T67E0 2536:960.265   CPU_ReadMem(4 bytes @ 0x2000006C)
T67E0 2536:960.649   Data:  00 00 00 00
T67E0 2536:960.677 - 0.452ms returns 4 (0x4)
T67E0 2536:960.823 JLINK_ReadMemEx(0x20000064, 0x4 Bytes, Flags = 0x02000000)
T67E0 2536:960.840   CPU_ReadMem(4 bytes @ 0x20000064)
T67E0 2536:961.183   Data:  00 00 00 00
T67E0 2536:961.196 - 0.376ms returns 4 (0x4)
T67E0 2536:961.208 JLINK_ReadMemEx(0x00000000, 0x4 Bytes, Flags = 0x02000000)
T67E0 2536:961.218   CPU_ReadMem(4 bytes @ 0x00000000)
T67E0 2536:961.599   Data:  78 08 00 20
T67E0 2536:961.617 - 0.414ms returns 4 (0x4)
T67E0 2536:961.775 JLINK_ReadMemEx(0x20000068, 0x4 Bytes, Flags = 0x02000000)
T67E0 2536:961.794   CPU_ReadMem(4 bytes @ 0x20000068)
T67E0 2536:962.169   Data:  00 00 00 00
T67E0 2536:962.189 - 0.418ms returns 4 (0x4)
T67E0 2536:962.214 JLINK_ReadMemEx(0x20000061, 0x1 Bytes, Flags = 0x02000000)
T67E0 2536:962.224   CPU_ReadMem(1 bytes @ 0x20000061)
T67E0 2536:962.555   Data:  00
T67E0 2536:962.568 - 0.357ms returns 1 (0x1)
T5F08 2537:467.543 JLINK_ReadMemEx(0x00000148, 0x2 Bytes, Flags = 0x02000000)
T5F08 2537:467.576   CPU_ReadMem(2 bytes @ 0x00000148)
T5F08 2537:467.960   Data:  07 48
T5F08 2537:467.979 - 0.439ms returns 2 (0x2)
T5F08 2537:467.990 JLINK_HasError()
T5F08 2537:467.997 JLINK_SetBPEx(Addr = 0x000005BA, Type = 0xFFFFFFF2)
T5F08 2537:468.006 - 0.011ms returns 0x00000003
T5F08 2537:468.013 JLINK_HasError()
T5F08 2537:468.019 JLINK_HasError()
T5F08 2537:468.027 JLINK_Go()
T5F08 2537:468.402   CPU_WriteMem(4 bytes @ 0xE0002000)
T5F08 2537:468.765   CPU_ReadMem(4 bytes @ 0xE0001000)
T5F08 2537:469.160   CPU_WriteMem(4 bytes @ 0xE0001000)
T5F08 2537:469.559   CPU_WriteMem(4 bytes @ 0xE0002008)
T5F08 2537:469.585   CPU_WriteMem(4 bytes @ 0xE000200C)
T5F08 2537:469.618   CPU_WriteMem(4 bytes @ 0xE0002010)
T5F08 2537:469.641   CPU_WriteMem(4 bytes @ 0xE0002014)
T5F08 2537:470.835   CPU_WriteMem(4 bytes @ 0xE0001004)
T5F08 2537:471.811 - 3.805ms
T5F08 2537:572.310 JLINK_HasError()
T5F08 2537:572.366 JLINK_IsHalted()
T5F08 2537:575.516 - 3.167ms returns TRUE
T5F08 2537:575.552 JLINK_HasError()
T5F08 2537:575.577 JLINK_Halt()
T5F08 2537:575.596 - 0.029ms returns 0x00
T5F08 2537:575.620 JLINK_IsHalted()
T5F08 2537:575.638 - 0.027ms returns TRUE
T5F08 2537:575.662 JLINK_IsHalted()
T5F08 2537:575.680 - 0.027ms returns TRUE
T5F08 2537:575.703 JLINK_IsHalted()
T5F08 2537:575.721 - 0.027ms returns TRUE
T5F08 2537:575.745 JLINK_HasError()
T5F08 2537:575.769 JLINK_ReadReg(R15 (PC))
T5F08 2537:575.792 - 0.032ms returns 0x000005BA
T5F08 2537:575.815 JLINK_ReadReg(XPSR)
T5F08 2537:575.835 - 0.029ms returns 0x21000000
T5F08 2537:575.862 JLINK_HasError()
T5F08 2537:575.886 JLINK_ClrBPEx(BPHandle = 0x00000003)
T5F08 2537:575.907 - 0.031ms returns 0x00
T5F08 2537:575.929 JLINK_HasError()
T5F08 2537:575.952 JLINK_HasError()
T5F08 2537:575.974 JLINK_ReadMemU32(0xE000ED30, 0x1 Items)
T5F08 2537:575.998   CPU_ReadMem(4 bytes @ 0xE000ED30)
T5F08 2537:576.415   Data:  02 00 00 00
T5F08 2537:576.444 - 0.479ms returns 1 (0x1)
T5F08 2537:576.469 JLINK_ReadMemU32(0xE0001028, 0x1 Items)
T5F08 2537:576.491   CPU_ReadMem(4 bytes @ 0xE0001028)
T5F08 2537:576.881   Data:  00 00 00 00
T5F08 2537:576.911   Debug reg: DWT_FUNC[0]
T5F08 2537:576.934 - 0.474ms returns 1 (0x1)
T5F08 2537:576.958 JLINK_ReadMemU32(0xE0001038, 0x1 Items)
T5F08 2537:576.979   CPU_ReadMem(4 bytes @ 0xE0001038)
T5F08 2537:577.416   Data:  00 00 00 00
T5F08 2537:577.458   Debug reg: DWT_FUNC[1]
T5F08 2537:577.483 - 0.533ms returns 1 (0x1)
T5F08 2537:577.549 JLINK_HasError()
T5F08 2537:577.574 JLINK_ReadReg(R0)
T5F08 2537:577.595 - 0.031ms returns 0x00000001
T5F08 2537:577.619 JLINK_ReadReg(R1)
T5F08 2537:577.639 - 0.028ms returns 0x00000080
T5F08 2537:577.662 JLINK_ReadReg(R2)
T5F08 2537:577.680 - 0.027ms returns 0x00000141
T5F08 2537:577.703 JLINK_ReadReg(R3)
T5F08 2537:577.721 - 0.027ms returns 0x00000000
T5F08 2537:577.746 JLINK_ReadReg(R4)
T5F08 2537:577.768 - 0.032ms returns 0x000010BF
T5F08 2537:577.792 JLINK_ReadReg(R5)
T5F08 2537:577.834 - 0.050ms returns 0x20000523
T5F08 2537:577.851 JLINK_ReadReg(R6)
T5F08 2537:577.858 - 0.009ms returns 0x00000200
T5F08 2537:577.866 JLINK_ReadReg(R7)
T5F08 2537:577.872 - 0.009ms returns 0x20000060
T5F08 2537:577.880 JLINK_ReadReg(R8)
T5F08 2537:577.886 - 0.009ms returns 0x00000000
T5F08 2537:577.894 JLINK_ReadReg(R9)
T5F08 2537:577.900 - 0.009ms returns 0x200001E4
T5F08 2537:577.907 JLINK_ReadReg(R10)
T5F08 2537:577.913 - 0.009ms returns 0x000005FC
T5F08 2537:577.921 JLINK_ReadReg(R11)
T5F08 2537:577.927 - 0.008ms returns 0x000005FC
T5F08 2537:577.935 JLINK_ReadReg(R12)
T5F08 2537:577.941 - 0.009ms returns 0x00000000
T5F08 2537:577.949 JLINK_ReadReg(R13 (SP))
T5F08 2537:577.955 - 0.009ms returns 0x20000458
T5F08 2537:577.962 JLINK_ReadReg(R14)
T5F08 2537:577.968 - 0.009ms returns 0x000005AF
T5F08 2537:577.976 JLINK_ReadReg(R15 (PC))
T5F08 2537:577.982 - 0.008ms returns 0x000005BA
T5F08 2537:577.989 JLINK_ReadReg(XPSR)
T5F08 2537:577.996 - 0.009ms returns 0x21000000
T5F08 2537:578.003 JLINK_ReadReg(MSP)
T5F08 2537:578.009 - 0.009ms returns 0x20000458
T5F08 2537:578.017 JLINK_ReadReg(PSP)
T5F08 2537:578.023 - 0.008ms returns 0x20002000
T5F08 2537:578.030 JLINK_ReadReg(CFBP)
T5F08 2537:578.036 - 0.008ms returns 0x00000000
T67E0 2537:578.147 JLINK_HasError()
T67E0 2537:578.831 JLINK_ReadMemEx(0x2000006C, 0x4 Bytes, Flags = 0x02000000)
T67E0 2537:578.850   CPU_ReadMem(4 bytes @ 0x2000006C)
T67E0 2537:579.216   Data:  00 00 00 00
T67E0 2537:579.257 - 0.437ms returns 4 (0x4)
T67E0 2537:579.348 JLINK_ReadMemEx(0x20000464, 0x20 Bytes, Flags = 0x02000000)
T67E0 2537:579.360   CPU_ReadMem(32 bytes @ 0x20000464)
T67E0 2537:579.880   Data:  01 01 01 01 01 01 01 01 01 01 01 01 01 01 01 01 ...
T67E0 2537:579.922 - 0.584ms returns 32 (0x20)
T67E0 2537:579.996 JLINK_ReadMemEx(0x20000064, 0x4 Bytes, Flags = 0x02000000)
T67E0 2537:580.007   CPU_ReadMem(4 bytes @ 0x20000064)
T67E0 2537:580.336   Data:  04 0E 00 00
T67E0 2537:580.367 - 0.379ms returns 4 (0x4)
T67E0 2537:580.396 JLINK_ReadMemEx(0x00000E04, 0x4 Bytes, Flags = 0x02000000)
T67E0 2537:580.425   CPU_ReadMem(64 bytes @ 0x00000E00)
T67E0 2537:581.336    -- Updating DA cache (64 bytes @ 0x00000E00)
T67E0 2537:581.369    -- Read from DA cache (4 bytes @ 0x00000E04)
T67E0 2537:581.396   Data:  85 85 85 85
T67E0 2537:581.421 - 1.034ms returns 4 (0x4)
T67E0 2537:581.507 JLINK_ReadMemEx(0x20000068, 0x4 Bytes, Flags = 0x02000000)
T67E0 2537:581.518   CPU_ReadMem(4 bytes @ 0x20000068)
T67E0 2537:581.845   Data:  FF 7F 00 00
T67E0 2537:581.875 - 0.376ms returns 4 (0x4)
T67E0 2537:581.941 JLINK_ReadMemEx(0x20000061, 0x1 Bytes, Flags = 0x02000000)
T67E0 2537:581.951   CPU_ReadMem(1 bytes @ 0x20000061)
T67E0 2537:582.392   Data:  01
T67E0 2537:582.413 - 0.475ms returns 1 (0x1)
T67E0 2537:582.697 JLINK_ReadMemEx(0x20000664, 0x20 Bytes, Flags = 0x02000000)
T67E0 2537:582.711   CPU_ReadMem(32 bytes @ 0x20000664)
T67E0 2537:583.261   Data:  01 01 01 01 01 01 01 01 01 01 01 01 01 01 01 01 ...
T67E0 2537:583.303 - 0.616ms returns 32 (0x20)
T67E0 2537:583.483 JLINK_ReadMemEx(0x00000E00, 0x200 Bytes, Flags = 0x02000000)
T67E0 2537:583.497   CPU_ReadMem(448 bytes @ 0x00000E40)
T67E0 2537:586.971    -- Updating DA cache (448 bytes @ 0x00000E40)
T67E0 2537:587.005    -- Read from DA cache (512 bytes @ 0x00000E00)
T67E0 2537:587.032   Data:  85 85 85 85 85 85 85 85 85 85 85 85 85 85 85 85 ...
T67E0 2537:587.057 - 3.583ms returns 512 (0x200)
T67E0 2537:587.088 JLINK_ReadMemEx(0x00001000, 0x157 Bytes, Flags = 0x02000000)
T67E0 2537:587.114   CPU_ReadMem(384 bytes @ 0x00001000)
T67E0 2537:590.177    -- Updating DA cache (384 bytes @ 0x00001000)
T67E0 2537:590.210    -- Read from DA cache (343 bytes @ 0x00001000)
T67E0 2537:590.239   Data:  01 01 01 01 01 01 01 01 01 01 01 01 01 01 01 01 ...
T67E0 2537:590.264 - 3.184ms returns 343 (0x157)
T67E0 2537:592.339 JLINK_ReadMemEx(0x4D000000, 0x38 Bytes, Flags = 0x02000004)
T67E0 2537:592.354   CPU_ReadMem(56 bytes @ 0x4D000000)
T67E0 2537:593.072   Data:  00 00 00 00 10 00 00 00 00 00 00 00 00 00 00 00 ...
T67E0 2537:593.105 - 0.774ms returns 56 (0x38)
T67E0 2537:593.131 JLINK_ReadMemEx(0x4D000000, 0x4 Bytes, Flags = 0x02000004)
T67E0 2537:593.156   CPU_ReadMem(4 bytes @ 0x4D000000)
T67E0 2537:593.572   Data:  00 00 00 00
T67E0 2537:593.617 - 0.495ms returns 4 (0x4)
T67E0 2537:593.646 JLINK_ReadMemEx(0x4D000004, 0x4 Bytes, Flags = 0x02000004)
T67E0 2537:593.676   CPU_ReadMem(4 bytes @ 0x4D000004)
T67E0 2537:594.069   Data:  10 00 00 00
T67E0 2537:594.115 - 0.479ms returns 4 (0x4)
T67E0 2537:594.150 JLINK_ReadMemEx(0x4D000008, 0x4 Bytes, Flags = 0x02000004)
T67E0 2537:594.178   CPU_ReadMem(4 bytes @ 0x4D000008)
T67E0 2537:594.652   Data:  00 00 00 00
T67E0 2537:594.686 - 0.540ms returns 4 (0x4)
T67E0 2537:594.701 JLINK_ReadMemEx(0x4D00000C, 0x4 Bytes, Flags = 0x02000004)
T67E0 2537:594.715   CPU_ReadMem(4 bytes @ 0x4D00000C)
T67E0 2537:595.102   Data:  00 00 00 00
T67E0 2537:595.146 - 0.455ms returns 4 (0x4)
T67E0 2537:595.179 JLINK_ReadMemEx(0x4D000010, 0x4 Bytes, Flags = 0x02000004)
T67E0 2537:595.206   CPU_ReadMem(4 bytes @ 0x4D000010)
T67E0 2537:595.650   Data:  00 00 00 00
T67E0 2537:595.680 - 0.510ms returns 4 (0x4)
T67E0 2537:595.707 JLINK_ReadMemEx(0x4D000014, 0x4 Bytes, Flags = 0x02000004)
T67E0 2537:595.730   CPU_ReadMem(4 bytes @ 0x4D000014)
T67E0 2537:596.120   Data:  10 00 00 00
T67E0 2537:596.150 - 0.452ms returns 4 (0x4)
T67E0 2537:596.176 JLINK_ReadMemEx(0x4D000018, 0x4 Bytes, Flags = 0x02000004)
T67E0 2537:596.199   CPU_ReadMem(4 bytes @ 0x4D000018)
T67E0 2537:596.663   Data:  00 00 00 00
T67E0 2537:596.700 - 0.533ms returns 4 (0x4)
T67E0 2537:596.729 JLINK_ReadMemEx(0x4D00001C, 0x4 Bytes, Flags = 0x02000004)
T67E0 2537:596.753   CPU_ReadMem(4 bytes @ 0x4D00001C)
T67E0 2537:597.148   Data:  00 00 00 00
T67E0 2537:597.176 - 0.455ms returns 4 (0x4)
T67E0 2537:597.206 JLINK_ReadMemEx(0x4D000020, 0x4 Bytes, Flags = 0x02000004)
T67E0 2537:597.229   CPU_ReadMem(4 bytes @ 0x4D000020)
T67E0 2537:597.662   Data:  00 00 00 00
T67E0 2537:597.677 - 0.474ms returns 4 (0x4)
T67E0 2537:597.690 JLINK_ReadMemEx(0x4D000024, 0x4 Bytes, Flags = 0x02000004)
T67E0 2537:597.700   CPU_ReadMem(4 bytes @ 0x4D000024)
T67E0 2537:598.062   Data:  00 00 00 00
T67E0 2537:598.074 - 0.386ms returns 4 (0x4)
T67E0 2537:598.084 JLINK_ReadMemEx(0x4D000028, 0x4 Bytes, Flags = 0x02000004)
T67E0 2537:598.092   CPU_ReadMem(4 bytes @ 0x4D000028)
T67E0 2537:598.467   Data:  00 00 00 00
T67E0 2537:598.494 - 0.412ms returns 4 (0x4)
T67E0 2537:598.504 JLINK_ReadMemEx(0x4D00002C, 0x4 Bytes, Flags = 0x02000004)
T67E0 2537:598.512   CPU_ReadMem(4 bytes @ 0x4D00002C)
T67E0 2537:598.830   Data:  00 00 00 00
T67E0 2537:598.842 - 0.341ms returns 4 (0x4)
T67E0 2537:598.853 JLINK_ReadMemEx(0x4D000030, 0x4 Bytes, Flags = 0x02000004)
T67E0 2537:598.861   CPU_ReadMem(4 bytes @ 0x4D000030)
T67E0 2537:599.192   Data:  00 00 00 00
T67E0 2537:599.209 - 0.359ms returns 4 (0x4)
T67E0 2537:599.219 JLINK_ReadMemEx(0x4D000034, 0x4 Bytes, Flags = 0x02000004)
T67E0 2537:599.228   CPU_ReadMem(4 bytes @ 0x4D000034)
T67E0 2537:599.556   Data:  00 00 00 00
T67E0 2537:599.568 - 0.351ms returns 4 (0x4)
T67E0 2537:599.580 JLINK_ReadMemEx(0x4D000038, 0x4 Bytes, Flags = 0x02000004)
T67E0 2537:599.587   CPU_ReadMem(4 bytes @ 0x4D000038)
T67E0 2537:599.912   Data:  00 00 00 00
T67E0 2537:599.952 - 0.377ms returns 4 (0x4)
T67E0 2537:599.965 JLINK_ReadMemEx(0x4D000038, 0x4 Bytes, Flags = 0x02000004)
T67E0 2537:599.975   CPU_ReadMem(4 bytes @ 0x4D000038)
T67E0 2537:600.335   Data:  00 00 00 00
T67E0 2537:600.360 - 0.399ms returns 4 (0x4)
T67E0 2537:601.917 JLINK_ReadMemEx(0x000005B4, 0x3C Bytes, Flags = 0x02000000)
T67E0 2537:601.931   CPU_ReadMem(128 bytes @ 0x00000580)
T67E0 2537:603.168    -- Updating DA cache (128 bytes @ 0x00000580)
T67E0 2537:603.183    -- Read from DA cache (60 bytes @ 0x000005B4)
T67E0 2537:603.193   Data:  2B 78 98 42 00 D0 FC 60 64 1C 6D 1C 52 1E 00 2A ...
T67E0 2537:603.202 - 1.288ms returns 60 (0x3C)
T67E0 2542:408.169 JLINK_ReadMemEx(0x00000E39, 0x1C7 Bytes, Flags = 0x02000000)
T67E0 2542:408.201    -- Read from DA cache (455 bytes @ 0x00000E39)
T67E0 2542:408.212   Data:  85 85 85 85 85 85 85 85 85 85 85 85 85 85 85 85 ...
T67E0 2542:408.221 - 0.055ms returns 455 (0x1C7)
T67E0 2542:408.230 JLINK_ReadMemEx(0x00001000, 0x190 Bytes, Flags = 0x02000000)
T67E0 2542:408.242   CPU_ReadMem(64 bytes @ 0x00001180)
T67E0 2542:409.079    -- Updating DA cache (64 bytes @ 0x00001180)
T67E0 2542:409.091    -- Read from DA cache (400 bytes @ 0x00001000)
T67E0 2542:409.100   Data:  01 01 01 01 01 01 01 01 01 01 01 01 01 01 01 01 ...
T67E0 2542:409.109 - 0.882ms returns 400 (0x190)
T67E0 2542:542.179 JLINK_ReadMemEx(0x00000E72, 0x18E Bytes, Flags = 0x02000000)
T67E0 2542:542.204    -- Read from DA cache (398 bytes @ 0x00000E72)
T67E0 2542:542.214   Data:  85 85 85 85 85 85 85 85 85 85 85 85 85 85 85 85 ...
T67E0 2542:542.222 - 0.046ms returns 398 (0x18E)
T67E0 2542:542.231 JLINK_ReadMemEx(0x00001000, 0x1C9 Bytes, Flags = 0x02000000)
T67E0 2542:542.242   CPU_ReadMem(64 bytes @ 0x000011C0)
T67E0 2542:543.080    -- Updating DA cache (64 bytes @ 0x000011C0)
T67E0 2542:543.090    -- Read from DA cache (457 bytes @ 0x00001000)
T67E0 2542:543.099   Data:  01 01 01 01 01 01 01 01 01 01 01 01 01 01 01 01 ...
T67E0 2542:543.108 - 0.879ms returns 457 (0x1C9)
T67E0 2542:642.181 JLINK_ReadMemEx(0x00000EAB, 0x155 Bytes, Flags = 0x02000000)
T67E0 2542:642.208    -- Read from DA cache (341 bytes @ 0x00000EAB)
T67E0 2542:642.217   Data:  85 85 85 85 85 85 85 85 85 85 85 85 85 85 85 85 ...
T67E0 2542:642.225 - 0.047ms returns 341 (0x155)
T67E0 2542:642.233 JLINK_ReadMemEx(0x00001000, 0x202 Bytes, Flags = 0x02000000)
T67E0 2542:642.243   CPU_ReadMem(64 bytes @ 0x00001200)
T67E0 2542:643.079    -- Updating DA cache (64 bytes @ 0x00001200)
T67E0 2542:643.088    -- Read from DA cache (514 bytes @ 0x00001000)
T67E0 2542:643.097   Data:  01 01 01 01 01 01 01 01 01 01 01 01 01 01 01 01 ...
T67E0 2542:643.105 - 0.874ms returns 514 (0x202)
T67E0 2543:524.305 JLINK_ReadMemEx(0x00000EE4, 0x11C Bytes, Flags = 0x02000000)
T67E0 2543:524.337    -- Read from DA cache (284 bytes @ 0x00000EE4)
T67E0 2543:524.347   Data:  85 85 85 85 85 85 85 85 85 85 85 85 85 85 85 85 ...
T67E0 2543:524.356 - 0.054ms returns 284 (0x11C)
T67E0 2543:524.365 JLINK_ReadMemEx(0x00001000, 0x23B Bytes, Flags = 0x02000000)
T67E0 2543:524.372    -- Read from DA cache (571 bytes @ 0x00001000)
T67E0 2543:524.381   Data:  01 01 01 01 01 01 01 01 01 01 01 01 01 01 01 01 ...
T67E0 2543:524.390 - 0.028ms returns 571 (0x23B)
T67E0 2543:594.519 JLINK_ReadMemEx(0x00000F1D, 0xE3 Bytes, Flags = 0x02000000)
T67E0 2543:594.551    -- Read from DA cache (227 bytes @ 0x00000F1D)
T67E0 2543:594.562   Data:  85 85 85 85 85 85 85 85 85 85 85 85 85 85 85 85 ...
T67E0 2543:594.571 - 0.054ms returns 227 (0xE3)
T67E0 2543:594.579 JLINK_ReadMemEx(0x00001000, 0x274 Bytes, Flags = 0x02000000)
T67E0 2543:594.591   CPU_ReadMem(64 bytes @ 0x00001240)
T67E0 2543:595.424    -- Updating DA cache (64 bytes @ 0x00001240)
T67E0 2543:595.435    -- Read from DA cache (628 bytes @ 0x00001000)
T67E0 2543:595.444   Data:  01 01 01 01 01 01 01 01 01 01 01 01 01 01 01 01 ...
T67E0 2543:595.453 - 0.876ms returns 628 (0x274)
T67E0 2550:297.905 JLINK_ReadMemEx(0x00001100, 0x300 Bytes, Flags = 0x02000000)
T67E0 2550:297.942   CPU_ReadMem(384 bytes @ 0x00001280)
T67E0 2550:301.088    -- Updating DA cache (384 bytes @ 0x00001280)
